
T4728 000:591 SEGGER J-Link V4.86b Log File (0001ms, 0263ms total)
T4728 000:591 DLL Compiled: Jun 27 2014 20:11:00 (0001ms, 0263ms total)
T4728 000:591 Logging started @ 2021-07-22 22:07 (0001ms, 0263ms total)
T4728 000:592 JLINK_SetWarnOutHandler(...) (0000ms, 0263ms total)
T4728 000:592 JLINK_OpenEx(...)
Firmware: J-Link V9 compiled Dec 13 2019 11:14:50
Hardware: V9.40
S/N: 59406895
Feature(s): RDI, GDB, FlashDL, FlashBP, JFlash  returns O.K. (0262ms, 0525ms total)
T4728 000:854 JLINK_SetErrorOutHandler(...) (0000ms, 0525ms total)
T4728 000:854 JLINK_ExecCommand("ProjectFile = "D:\STM32CubeMx\TIM2\MDK-ARM\JLinkSettings.ini"", ...)  returns 0x00 (0000ms, 0525ms total)
T4728 000:857 JLINK_ExecCommand("Device = STM32F103RC", ...)Device "STM32F103RC" selected (256 KB flash, 48 KB RAM).  returns 0x00 (0005ms, 0530ms total)
T4728 000:862 JLINK_ExecCommand("DisableConnectionTimeout", ...)  returns 0x01 (0000ms, 0530ms total)
T4728 000:862 JLINK_GetHardwareVersion()  returns 0x16F30 (0000ms, 0530ms total)
T4728 000:862 JLINK_GetDLLVersion()  returns 48602 (0000ms, 0530ms total)
T4728 000:862 JLINK_GetFirmwareString(...) (0000ms, 0530ms total)
T4728 000:879 JLINK_GetDLLVersion()  returns 48602 (0001ms, 0531ms total)
T4728 000:880 JLINK_GetCompileDateTime() (0000ms, 0531ms total)
T4728 000:888 JLINK_GetFirmwareString(...) (0000ms, 0531ms total)
T4728 000:891 JLINK_GetHardwareVersion()  returns 0x16F30 (0000ms, 0531ms total)
T4728 000:908 JLINK_TIF_Select(JLINKARM_TIF_SWD)  returns 0x00 (0000ms, 0531ms total)
T4728 000:908 JLINK_SetSpeed(20000) (0001ms, 0532ms total)
T4728 000:909 JLINK_GetId() >0x108 TIF>Found SWD-DP with ID 0x1BA01477 >0x0D TIF> >0x28 TIF> >0x0D TIF> >0x28 TIF> >0x0D TIF> >0x21 TIF> >0x0D TIF> >0x28 TIF> >0x0D TIF> >0x28 TIF> >0x0D TIF> >0x28 TIF> >0x0D TIF> >0x0D TIF> >0x21 TIF> >0x0D TIF> >0x21 TIF> >0x0D TIF> >0x28 TIF> >0x0D TIF> >0x0D TIF> >0x21 TIF> >0x0D TIF> >0x21 TIF> >0x108 TIF>Found SWD-DP with ID 0x1BA01477 >0x0D TIF> >0x21 TIF> >0x0D TIF> >0x28 TIF> >0x0D TIF> >0x28 TIF> >0x0D TIF> >0x21 TIF> >0x0D TIF> >0x28 TIF> >0x0D TIF> >0x21 TIF>
 >0x0D TIF> >0x21 TIF> >0x0D TIF> >0x21 TIF> >0x0D TIF> >0x21 TIF> >0x0D TIF> >0x28 TIF> >0x0D TIF> >0x28 TIF> >0x0D TIF> >0x21 TIF> >0x0D TIF> >0x28 TIF> >0x0D TIF> >0x28 TIF> >0x0D TIF> >0x28 TIF> >0x0D TIF> >0x0D TIF> >0x21 TIF> >0x0D TIF> >0x21 TIF> >0x0D TIF> >0x28 TIF> >0x0D TIF> >0x0D TIF> >0x21 TIF> >0x0D TIF> >0x21 TIF>Found Cortex-M3 r1p1, Little endian. -- CPU_WriteMem(4 bytes @ 0xE0002000) -- CPU_ReadMem(4 bytes @ 0xE000EDF0) -- CPU_ReadMem(4 bytes @ 0xE0002000)
FPUnit: 6 code (BP) slots and 2 literal slots -- CPU_ReadMem(4 bytes @ 0xE000EDFC) -- CPU_ReadMem(4 bytes @ 0xE0001000) -- CPU_WriteMem(4 bytes @ 0xE0001000) -- CPU_ReadMem(4 bytes @ 0xE00FF010)TPIU fitted. -- CPU_ReadMem(4 bytes @ 0xE00FF014)ETM fitted. -- CPU_ReadMem(4 bytes @ 0xE00FF018) >0x0D TIF> >0x21 TIF>  returns 0x1BA01477 (0032ms, 0564ms total)
T4728 000:941 JLINK_GetDLLVersion()  returns 48602 (0000ms, 0564ms total)
T4728 000:941 JLINK_CORE_GetFound()  returns 0x30000FF (0000ms, 0564ms total)
T4728 000:945 JLINK_ReadMem (0xE00FF000, 0x0020 Bytes, ...) -- CPU is running -- CPU_ReadMem(32 bytes @ 0xE00FF000) - Data: 03 F0 F0 FF 03 20 F0 FF 03 30 F0 FF 03 10 F0 FF ...  returns 0x00 (0000ms, 0564ms total)
T4728 000:945 JLINK_ReadMem (0xE000EFF0, 0x0010 Bytes, ...) -- CPU is running -- CPU_ReadMem(16 bytes @ 0xE000EFF0) - Data: 0D 00 00 00 E0 00 00 00 05 00 00 00 B1 00 00 00  returns 0x00 (0000ms, 0564ms total)
T4728 000:945 JLINK_ReadMem (0xE000EFD0, 0x0020 Bytes, ...) -- CPU is running -- CPU_ReadMem(32 bytes @ 0xE000EFD0) - Data: 04 00 00 00 00 00 00 00 00 00 00 00 00 00 00 00 ...  returns 0x00 (0000ms, 0564ms total)
T4728 000:945 JLINK_ReadMem (0xE0001FF0, 0x0010 Bytes, ...) -- CPU is running -- CPU_ReadMem(16 bytes @ 0xE0001FF0) - Data: 0D 00 00 00 E0 00 00 00 05 00 00 00 B1 00 00 00  returns 0x00 (0000ms, 0564ms total)
T4728 000:945 JLINK_ReadMem (0xE0001FD0, 0x0020 Bytes, ...) -- CPU is running -- CPU_ReadMem(32 bytes @ 0xE0001FD0) - Data: 04 00 00 00 00 00 00 00 00 00 00 00 00 00 00 00 ...  returns 0x00 (0001ms, 0565ms total)
T4728 000:946 JLINK_ReadMem (0xE0002FF0, 0x0010 Bytes, ...) -- CPU is running -- CPU_ReadMem(16 bytes @ 0xE0002FF0) - Data: 0D 00 00 00 E0 00 00 00 05 00 00 00 B1 00 00 00  returns 0x00 (0000ms, 0565ms total)
T4728 000:946 JLINK_ReadMem (0xE0002FD0, 0x0020 Bytes, ...) -- CPU is running -- CPU_ReadMem(32 bytes @ 0xE0002FD0) - Data: 04 00 00 00 00 00 00 00 00 00 00 00 00 00 00 00 ...  returns 0x00 (0000ms, 0565ms total)
T4728 000:946 JLINK_ReadMem (0xE0000FF0, 0x0010 Bytes, ...) -- CPU is running -- CPU_ReadMem(16 bytes @ 0xE0000FF0) - Data: 0D 00 00 00 E0 00 00 00 05 00 00 00 B1 00 00 00  returns 0x00 (0000ms, 0565ms total)
T4728 000:946 JLINK_ReadMem (0xE0000FD0, 0x0020 Bytes, ...) -- CPU is running -- CPU_ReadMem(32 bytes @ 0xE0000FD0) - Data: 04 00 00 00 00 00 00 00 00 00 00 00 00 00 00 00 ...  returns 0x00 (0001ms, 0566ms total)
T4728 000:947 JLINK_ReadMem (0xE0040FF0, 0x0010 Bytes, ...) -- CPU is running -- CPU_ReadMem(16 bytes @ 0xE0040FF0) - Data: 0D 00 00 00 90 00 00 00 05 00 00 00 B1 00 00 00  returns 0x00 (0000ms, 0566ms total)
T4728 000:947 JLINK_ReadMem (0xE0040FD0, 0x0020 Bytes, ...) -- CPU is running -- CPU_ReadMem(32 bytes @ 0xE0040FD0) - Data: 04 00 00 00 00 00 00 00 00 00 00 00 00 00 00 00 ...  returns 0x00 (0000ms, 0566ms total)
T4728 000:947 JLINK_ReadMem (0xE0041FF0, 0x0010 Bytes, ...) -- CPU is running -- CPU_ReadMem(16 bytes @ 0xE0041FF0) - Data: 0D 00 00 00 90 00 00 00 05 00 00 00 B1 00 00 00  returns 0x00 (0001ms, 0567ms total)
T4728 000:948 JLINK_ReadMem (0xE0041FD0, 0x0020 Bytes, ...) -- CPU is running -- CPU_ReadMem(32 bytes @ 0xE0041FD0) - Data: 04 00 00 00 00 00 00 00 00 00 00 00 00 00 00 00 ...  returns 0x00 (0000ms, 0567ms total)
T4728 000:948 JLINK_ReadMemU32(0xE000ED00, 0x0001 Items, ...) -- CPU is running -- CPU_ReadMem(4 bytes @ 0xE000ED00) - Data: 31 C2 1F 41  returns 0x01 (0000ms, 0567ms total)
T4728 000:948 JLINK_SetResetType(JLINKARM_RESET_TYPE_NORMAL)  returns JLINKARM_RESET_TYPE_NORMAL (0000ms, 0567ms total)
T4728 000:948 JLINK_Reset() -- CPU is running -- CPU_WriteMem(4 bytes @ 0xE000EDF0) -- CPU is running -- CPU_WriteMem(4 bytes @ 0xE000EDFC) >0x35 TIF> -- CPU is running -- CPU_WriteMem(4 bytes @ 0xE000ED0C) -- CPU is running -- CPU_ReadMem(4 bytes @ 0xE000EDF0) -- CPU is running -- CPU_ReadMem(4 bytes @ 0xE000EDF0) -- CPU is running -- CPU_ReadMem(4 bytes @ 0xE000EDF0) -- CPU is running -- CPU_ReadMem(4 bytes @ 0xE000EDF0) -- CPU is running -- CPU_ReadMem(4 bytes @ 0xE000EDF0) -- CPU is running
 -- CPU_ReadMem(4 bytes @ 0xE000EDF0) -- CPU is running -- CPU_ReadMem(4 bytes @ 0xE000EDF0) -- CPU is running -- CPU_ReadMem(4 bytes @ 0xE000EDF0) -- CPU is running -- CPU_ReadMem(4 bytes @ 0xE000EDF0) -- CPU is running -- CPU_ReadMem(4 bytes @ 0xE000EDF0) -- CPU is running -- CPU_ReadMem(4 bytes @ 0xE000EDF0) -- CPU is running -- CPU_ReadMem(4 bytes @ 0xE000EDF0) -- CPU is running -- CPU_ReadMem(4 bytes @ 0xE000EDF0) -- CPU is running -- CPU_ReadMem(4 bytes @ 0xE000EDF0) -- CPU is running
 -- CPU_ReadMem(4 bytes @ 0xE000EDF0) -- CPU is running -- CPU_ReadMem(4 bytes @ 0xE000EDF0) -- CPU is running -- CPU_ReadMem(4 bytes @ 0xE000EDF0) -- CPU is running -- CPU_ReadMem(4 bytes @ 0xE000EDF0) -- CPU is running -- CPU_WriteMem(4 bytes @ 0xE000EDF0) -- CPU is running -- CPU_WriteMem(4 bytes @ 0xE000EDFC) -- CPU is running -- CPU_ReadMem(4 bytes @ 0xE000EDF0) -- CPU_WriteMem(4 bytes @ 0xE0002000) -- CPU_ReadMem(4 bytes @ 0xE000EDFC) -- CPU_ReadMem(4 bytes @ 0xE0001000) (0017ms, 0584ms total)
T4728 000:965 JLINK_Halt()  returns 0x00 (0000ms, 0584ms total)
T4728 000:965 JLINK_IsHalted()  returns TRUE (0000ms, 0584ms total)
T4728 000:965 JLINK_ReadMemU32(0xE000EDF0, 0x0001 Items, ...) -- CPU_ReadMem(4 bytes @ 0xE000EDF0) - Data: 03 00 03 00  returns 0x01 (0000ms, 0584ms total)
T4728 000:965 JLINK_WriteU32(0xE000EDF0, 0xA05F0003) -- CPU_WriteMem(4 bytes @ 0xE000EDF0)  returns 0x00 (0001ms, 0585ms total)
T4728 000:966 JLINK_WriteU32(0xE000EDFC, 0x01000000) -- CPU_WriteMem(4 bytes @ 0xE000EDFC)  returns 0x00 (0000ms, 0585ms total)
T4728 000:979 JLINK_GetHWStatus(...)  returns 0x00 (0000ms, 0585ms total)
T4728 000:987 JLINK_GetNumBPUnits(Type = 0xFFFFFF00)  returns 0x06 (0000ms, 0585ms total)
T4728 000:987 JLINK_GetNumBPUnits(Type = 0xF0)  returns 0x2000 (0000ms, 0585ms total)
T4728 000:987 JLINK_GetNumWPUnits()  returns 0x04 (0000ms, 0585ms total)
T4728 000:996 JLINK_GetSpeed()  returns 0x2EE0 (0000ms, 0585ms total)
T4728 001:003 JLINK_ReadMemU32(0xE000E004, 0x0001 Items, ...) -- CPU_ReadMem(4 bytes @ 0xE000E004) - Data: 01 00 00 00  returns 0x01 (0000ms, 0585ms total)
T4728 001:003 JLINK_ReadMemU32(0xE000E004, 0x0001 Items, ...) -- CPU_ReadMem(4 bytes @ 0xE000E004) - Data: 01 00 00 00  returns 0x01 (0000ms, 0585ms total)
T4728 001:003 JLINK_WriteMem(0xE0001000, 0x001C Bytes, ...) - Data: 01 00 00 00 00 00 00 00 00 00 00 00 00 00 00 00 ... -- CPU_WriteMem(28 bytes @ 0xE0001000)  returns 0x1C (0001ms, 0586ms total)
T4728 001:004 JLINK_ReadMem (0xE0001000, 0x001C Bytes, ...) -- CPU_ReadMem(28 bytes @ 0xE0001000) - Data: 01 00 00 40 00 00 00 00 00 00 00 00 00 00 00 00 ...  returns 0x00 (0000ms, 0586ms total)
T4728 001:004 JLINK_Halt()  returns 0x00 (0000ms, 0586ms total)
T4728 001:004 JLINK_IsHalted()  returns TRUE (0000ms, 0586ms total)
T4728 001:008 JLINK_WriteMem(0x20000000, 0x0164 Bytes, ...) - Data: 00 BE 0A E0 0D 78 2D 06 68 40 08 24 40 00 00 D3 ... -- CPU_WriteMem(356 bytes @ 0x20000000)  returns 0x164 (0001ms, 0587ms total)
T4728 001:010 JLINK_WriteReg(R0, 0x08000000)  returns 0x00 (0000ms, 0587ms total)
T4728 001:010 JLINK_WriteReg(R1, 0x044AA200)  returns 0x00 (0000ms, 0587ms total)
T4728 001:010 JLINK_WriteReg(R2, 0x00000001)  returns 0x00 (0000ms, 0587ms total)
T4728 001:010 JLINK_WriteReg(R3, 0x00000000)  returns 0x00 (0000ms, 0587ms total)
T4728 001:010 JLINK_WriteReg(R4, 0x00000000)  returns 0x00 (0000ms, 0587ms total)
T4728 001:010 JLINK_WriteReg(R5, 0x00000000)  returns 0x00 (0000ms, 0587ms total)
T4728 001:010 JLINK_WriteReg(R6, 0x00000000)  returns 0x00 (0000ms, 0587ms total)
T4728 001:010 JLINK_WriteReg(R7, 0x00000000)  returns 0x00 (0000ms, 0587ms total)
T4728 001:010 JLINK_WriteReg(R8, 0x00000000)  returns 0x00 (0000ms, 0587ms total)
T4728 001:010 JLINK_WriteReg(R9, 0x20000160)  returns 0x00 (0000ms, 0587ms total)
T4728 001:010 JLINK_WriteReg(R10, 0x00000000)  returns 0x00 (0000ms, 0587ms total)
T4728 001:010 JLINK_WriteReg(R11, 0x00000000)  returns 0x00 (0000ms, 0587ms total)
T4728 001:010 JLINK_WriteReg(R12, 0x00000000)  returns 0x00 (0000ms, 0587ms total)
T4728 001:010 JLINK_WriteReg(R13 (SP), 0x20001000)  returns 0x00 (0000ms, 0587ms total)
T4728 001:010 JLINK_WriteReg(R14, 0x20000001)  returns 0x00 (0000ms, 0587ms total)
T4728 001:010 JLINK_WriteReg(R15 (PC), 0x20000038)  returns 0x00 (0000ms, 0587ms total)
T4728 001:010 JLINK_WriteReg(XPSR, 0x01000000)  returns 0x00 (0000ms, 0587ms total)
T4728 001:010 JLINK_WriteReg(MSP, 0x20001000)  returns 0x00 (0000ms, 0587ms total)
T4728 001:010 JLINK_WriteReg(PSP, 0x20001000)  returns 0x00 (0000ms, 0587ms total)
T4728 001:010 JLINK_WriteReg(CFBP, 0x00000000)  returns 0x00 (0000ms, 0587ms total)
T4728 001:010 JLINK_SetBPEx(Addr = 0x20000000, Type = 0xFFFFFFF2) -- CPU_ReadMem(2 bytes @ 0x20000000)  returns 0x00000001 (0000ms, 0587ms total)
T4728 001:010 JLINK_Go() -- CPU_WriteMem(2 bytes @ 0x20000000) -- CPU_WriteMem(4 bytes @ 0xE0002008) -- CPU_WriteMem(4 bytes @ 0xE000200C) -- CPU_WriteMem(4 bytes @ 0xE0002010) -- CPU_WriteMem(4 bytes @ 0xE0002014) -- CPU_WriteMem(4 bytes @ 0xE0002018) -- CPU_WriteMem(4 bytes @ 0xE000201C) -- CPU_WriteMem(4 bytes @ 0xE0001004) (0003ms, 0590ms total)
T4728 001:013 JLINK_IsHalted() -- CPU_ReadMem(2 bytes @ 0x20000000)  returns TRUE (0002ms, 0592ms total)
T4728 001:015 JLINK_ReadReg(R15 (PC))  returns 0x20000000 (0000ms, 0590ms total)
T4728 001:015 JLINK_ClrBPEx(BPHandle = 0x00000001)  returns 0x00 (0000ms, 0590ms total)
T4728 001:015 JLINK_ReadReg(R0)  returns 0x00000000 (0000ms, 0590ms total)
T4728 001:015 JLINK_WriteReg(R0, 0x08000000)  returns 0x00 (0000ms, 0590ms total)
T4728 001:015 JLINK_WriteReg(R1, 0x00000800)  returns 0x00 (0000ms, 0590ms total)
T4728 001:015 JLINK_WriteReg(R2, 0x000000FF)  returns 0x00 (0000ms, 0590ms total)
T4728 001:015 JLINK_WriteReg(R3, 0x00000000)  returns 0x00 (0000ms, 0590ms total)
T4728 001:015 JLINK_WriteReg(R4, 0x00000000)  returns 0x00 (0000ms, 0590ms total)
T4728 001:015 JLINK_WriteReg(R5, 0x00000000)  returns 0x00 (0000ms, 0590ms total)
T4728 001:015 JLINK_WriteReg(R6, 0x00000000)  returns 0x00 (0000ms, 0590ms total)
T4728 001:015 JLINK_WriteReg(R7, 0x00000000)  returns 0x00 (0000ms, 0590ms total)
T4728 001:015 JLINK_WriteReg(R8, 0x00000000)  returns 0x00 (0000ms, 0590ms total)
T4728 001:015 JLINK_WriteReg(R9, 0x20000160)  returns 0x00 (0000ms, 0590ms total)
T4728 001:015 JLINK_WriteReg(R10, 0x00000000)  returns 0x00 (0000ms, 0590ms total)
T4728 001:015 JLINK_WriteReg(R11, 0x00000000)  returns 0x00 (0000ms, 0590ms total)
T4728 001:015 JLINK_WriteReg(R12, 0x00000000)  returns 0x00 (0000ms, 0590ms total)
T4728 001:015 JLINK_WriteReg(R13 (SP), 0x20001000)  returns 0x00 (0000ms, 0590ms total)
T4728 001:015 JLINK_WriteReg(R14, 0x20000001)  returns 0x00 (0000ms, 0590ms total)
T4728 001:015 JLINK_WriteReg(R15 (PC), 0x20000020)  returns 0x00 (0000ms, 0590ms total)
T4728 001:015 JLINK_WriteReg(XPSR, 0x01000000)  returns 0x00 (0000ms, 0590ms total)
T4728 001:015 JLINK_WriteReg(MSP, 0x20001000)  returns 0x00 (0000ms, 0590ms total)
T4728 001:015 JLINK_WriteReg(PSP, 0x20001000)  returns 0x00 (0000ms, 0590ms total)
T4728 001:015 JLINK_WriteReg(CFBP, 0x00000000)  returns 0x00 (0000ms, 0590ms total)
T4728 001:015 JLINK_SetBPEx(Addr = 0x20000000, Type = 0xFFFFFFF2)  returns 0x00000002 (0000ms, 0590ms total)
T4728 001:015 JLINK_Go() (0001ms, 0591ms total)
T4728 001:016 JLINK_IsHalted() -- CPU_ReadMem(2 bytes @ 0x20000000)  returns TRUE (0002ms, 0593ms total)
T4728 001:018 JLINK_ReadReg(R15 (PC))  returns 0x20000000 (0000ms, 0591ms total)
T4728 001:018 JLINK_ClrBPEx(BPHandle = 0x00000002)  returns 0x00 (0000ms, 0591ms total)
T4728 001:018 JLINK_ReadReg(R0)  returns 0x00000001 (0000ms, 0591ms total)
T4728 001:018 JLINK_WriteReg(R0, 0x08000000)  returns 0x00 (0000ms, 0591ms total)
T4728 001:018 JLINK_WriteReg(R1, 0x00000800)  returns 0x00 (0000ms, 0591ms total)
T4728 001:018 JLINK_WriteReg(R2, 0x000000FF)  returns 0x00 (0000ms, 0591ms total)
T4728 001:018 JLINK_WriteReg(R3, 0x00000000)  returns 0x00 (0000ms, 0591ms total)
T4728 001:018 JLINK_WriteReg(R4, 0x00000000)  returns 0x00 (0000ms, 0591ms total)
T4728 001:018 JLINK_WriteReg(R5, 0x00000000)  returns 0x00 (0000ms, 0591ms total)
T4728 001:018 JLINK_WriteReg(R6, 0x00000000)  returns 0x00 (0000ms, 0591ms total)
T4728 001:018 JLINK_WriteReg(R7, 0x00000000)  returns 0x00 (0000ms, 0591ms total)
T4728 001:018 JLINK_WriteReg(R8, 0x00000000)  returns 0x00 (0000ms, 0591ms total)
T4728 001:018 JLINK_WriteReg(R9, 0x20000160)  returns 0x00 (0000ms, 0591ms total)
T4728 001:018 JLINK_WriteReg(R10, 0x00000000)  returns 0x00 (0000ms, 0591ms total)
T4728 001:018 JLINK_WriteReg(R11, 0x00000000)  returns 0x00 (0000ms, 0591ms total)
T4728 001:018 JLINK_WriteReg(R12, 0x00000000)  returns 0x00 (0000ms, 0591ms total)
T4728 001:018 JLINK_WriteReg(R13 (SP), 0x20001000)  returns 0x00 (0000ms, 0591ms total)
T4728 001:018 JLINK_WriteReg(R14, 0x20000001)  returns 0x00 (0000ms, 0591ms total)
T4728 001:018 JLINK_WriteReg(R15 (PC), 0x200000B6)  returns 0x00 (0000ms, 0591ms total)
T4728 001:018 JLINK_WriteReg(XPSR, 0x01000000)  returns 0x00 (0000ms, 0591ms total)
T4728 001:018 JLINK_WriteReg(MSP, 0x20001000)  returns 0x00 (0000ms, 0591ms total)
T4728 001:018 JLINK_WriteReg(PSP, 0x20001000)  returns 0x00 (0000ms, 0591ms total)
T4728 001:018 JLINK_WriteReg(CFBP, 0x00000000)  returns 0x00 (0000ms, 0591ms total)
T4728 001:019 JLINK_SetBPEx(Addr = 0x20000000, Type = 0xFFFFFFF2)  returns 0x00000003 (0000ms, 0591ms total)
T4728 001:019 JLINK_Go() (0000ms, 0591ms total)
T4728 001:019 JLINK_IsHalted()  returns FALSE (0001ms, 0592ms total)
T4728 001:086 JLINK_IsHalted() -- CPU_ReadMem(2 bytes @ 0x20000000)  returns TRUE (0001ms, 0592ms total)
T4728 001:088 JLINK_ReadReg(R15 (PC))  returns 0x20000000 (0000ms, 0591ms total)
T4728 001:088 JLINK_ClrBPEx(BPHandle = 0x00000003)  returns 0x00 (0000ms, 0591ms total)
T4728 001:088 JLINK_ReadReg(R0)  returns 0x00000000 (0000ms, 0591ms total)
T4728 001:088 JLINK_WriteReg(R0, 0x08000800)  returns 0x00 (0000ms, 0591ms total)
T4728 001:088 JLINK_WriteReg(R1, 0x00000800)  returns 0x00 (0000ms, 0591ms total)
T4728 001:088 JLINK_WriteReg(R2, 0x000000FF)  returns 0x00 (0000ms, 0591ms total)
T4728 001:088 JLINK_WriteReg(R3, 0x00000000)  returns 0x00 (0000ms, 0591ms total)
T4728 001:088 JLINK_WriteReg(R4, 0x00000000)  returns 0x00 (0000ms, 0591ms total)
T4728 001:088 JLINK_WriteReg(R5, 0x00000000)  returns 0x00 (0000ms, 0591ms total)
T4728 001:088 JLINK_WriteReg(R6, 0x00000000)  returns 0x00 (0000ms, 0591ms total)
T4728 001:088 JLINK_WriteReg(R7, 0x00000000)  returns 0x00 (0000ms, 0591ms total)
T4728 001:088 JLINK_WriteReg(R8, 0x00000000)  returns 0x00 (0000ms, 0591ms total)
T4728 001:088 JLINK_WriteReg(R9, 0x20000160)  returns 0x00 (0000ms, 0591ms total)
T4728 001:088 JLINK_WriteReg(R10, 0x00000000)  returns 0x00 (0000ms, 0591ms total)
T4728 001:088 JLINK_WriteReg(R11, 0x00000000)  returns 0x00 (0000ms, 0591ms total)
T4728 001:088 JLINK_WriteReg(R12, 0x00000000)  returns 0x00 (0000ms, 0591ms total)
T4728 001:088 JLINK_WriteReg(R13 (SP), 0x20001000)  returns 0x00 (0000ms, 0591ms total)
T4728 001:088 JLINK_WriteReg(R14, 0x20000001)  returns 0x00 (0000ms, 0591ms total)
T4728 001:088 JLINK_WriteReg(R15 (PC), 0x20000020)  returns 0x00 (0000ms, 0591ms total)
T4728 001:088 JLINK_WriteReg(XPSR, 0x01000000)  returns 0x00 (0001ms, 0592ms total)
T4728 001:089 JLINK_WriteReg(MSP, 0x20001000)  returns 0x00 (0000ms, 0592ms total)
T4728 001:089 JLINK_WriteReg(PSP, 0x20001000)  returns 0x00 (0000ms, 0592ms total)
T4728 001:089 JLINK_WriteReg(CFBP, 0x00000000)  returns 0x00 (0000ms, 0592ms total)
T4728 001:089 JLINK_SetBPEx(Addr = 0x20000000, Type = 0xFFFFFFF2)  returns 0x00000004 (0000ms, 0592ms total)
T4728 001:089 JLINK_Go() (0000ms, 0592ms total)
T4728 001:089 JLINK_IsHalted() -- CPU_ReadMem(2 bytes @ 0x20000000)  returns TRUE (0002ms, 0594ms total)
T4728 001:091 JLINK_ReadReg(R15 (PC))  returns 0x20000000 (0000ms, 0592ms total)
T4728 001:091 JLINK_ClrBPEx(BPHandle = 0x00000004)  returns 0x00 (0000ms, 0592ms total)
T4728 001:091 JLINK_ReadReg(R0)  returns 0x00000001 (0000ms, 0592ms total)
T4728 001:091 JLINK_WriteReg(R0, 0x08000800)  returns 0x00 (0000ms, 0592ms total)
T4728 001:091 JLINK_WriteReg(R1, 0x00000800)  returns 0x00 (0000ms, 0592ms total)
T4728 001:091 JLINK_WriteReg(R2, 0x000000FF)  returns 0x00 (0000ms, 0592ms total)
T4728 001:091 JLINK_WriteReg(R3, 0x00000000)  returns 0x00 (0000ms, 0592ms total)
T4728 001:091 JLINK_WriteReg(R4, 0x00000000)  returns 0x00 (0000ms, 0592ms total)
T4728 001:091 JLINK_WriteReg(R5, 0x00000000)  returns 0x00 (0000ms, 0592ms total)
T4728 001:091 JLINK_WriteReg(R6, 0x00000000)  returns 0x00 (0000ms, 0592ms total)
T4728 001:091 JLINK_WriteReg(R7, 0x00000000)  returns 0x00 (0000ms, 0592ms total)
T4728 001:091 JLINK_WriteReg(R8, 0x00000000)  returns 0x00 (0000ms, 0592ms total)
T4728 001:091 JLINK_WriteReg(R9, 0x20000160)  returns 0x00 (0000ms, 0592ms total)
T4728 001:091 JLINK_WriteReg(R10, 0x00000000)  returns 0x00 (0000ms, 0592ms total)
T4728 001:091 JLINK_WriteReg(R11, 0x00000000)  returns 0x00 (0000ms, 0592ms total)
T4728 001:091 JLINK_WriteReg(R12, 0x00000000)  returns 0x00 (0000ms, 0592ms total)
T4728 001:091 JLINK_WriteReg(R13 (SP), 0x20001000)  returns 0x00 (0000ms, 0592ms total)
T4728 001:091 JLINK_WriteReg(R14, 0x20000001)  returns 0x00 (0000ms, 0592ms total)
T4728 001:091 JLINK_WriteReg(R15 (PC), 0x200000B6)  returns 0x00 (0000ms, 0592ms total)
T4728 001:091 JLINK_WriteReg(XPSR, 0x01000000)  returns 0x00 (0000ms, 0592ms total)
T4728 001:091 JLINK_WriteReg(MSP, 0x20001000)  returns 0x00 (0000ms, 0592ms total)
T4728 001:092 JLINK_WriteReg(PSP, 0x20001000)  returns 0x00 (0000ms, 0592ms total)
T4728 001:092 JLINK_WriteReg(CFBP, 0x00000000)  returns 0x00 (0000ms, 0592ms total)
T4728 001:092 JLINK_SetBPEx(Addr = 0x20000000, Type = 0xFFFFFFF2)  returns 0x00000005 (0000ms, 0592ms total)
T4728 001:092 JLINK_Go() (0000ms, 0592ms total)
T4728 001:092 JLINK_IsHalted()  returns FALSE (0000ms, 0592ms total)
T4728 001:096 JLINK_IsHalted()  returns FALSE (0000ms, 0592ms total)
T4728 001:102 JLINK_IsHalted()  returns FALSE (0000ms, 0592ms total)
T4728 001:104 JLINK_IsHalted()  returns FALSE (0000ms, 0592ms total)
T4728 001:107 JLINK_IsHalted()  returns FALSE (0000ms, 0592ms total)
T4728 001:110 JLINK_IsHalted()  returns FALSE (0000ms, 0592ms total)
T4728 001:112 JLINK_IsHalted()  returns FALSE (0000ms, 0592ms total)
T4728 001:115 JLINK_IsHalted() -- CPU_ReadMem(2 bytes @ 0x20000000)  returns TRUE (0001ms, 0593ms total)
T4728 001:116 JLINK_ReadReg(R15 (PC))  returns 0x20000000 (0000ms, 0592ms total)
T4728 001:116 JLINK_ClrBPEx(BPHandle = 0x00000005)  returns 0x00 (0000ms, 0592ms total)
T4728 001:116 JLINK_ReadReg(R0)  returns 0x00000000 (0000ms, 0592ms total)
T4728 001:117 JLINK_WriteReg(R0, 0x08001000)  returns 0x00 (0000ms, 0592ms total)
T4728 001:117 JLINK_WriteReg(R1, 0x00000800)  returns 0x00 (0000ms, 0592ms total)
T4728 001:117 JLINK_WriteReg(R2, 0x000000FF)  returns 0x00 (0000ms, 0592ms total)
T4728 001:117 JLINK_WriteReg(R3, 0x00000000)  returns 0x00 (0000ms, 0592ms total)
T4728 001:117 JLINK_WriteReg(R4, 0x00000000)  returns 0x00 (0000ms, 0592ms total)
T4728 001:117 JLINK_WriteReg(R5, 0x00000000)  returns 0x00 (0000ms, 0592ms total)
T4728 001:117 JLINK_WriteReg(R6, 0x00000000)  returns 0x00 (0000ms, 0592ms total)
T4728 001:117 JLINK_WriteReg(R7, 0x00000000)  returns 0x00 (0000ms, 0592ms total)
T4728 001:117 JLINK_WriteReg(R8, 0x00000000)  returns 0x00 (0000ms, 0592ms total)
T4728 001:117 JLINK_WriteReg(R9, 0x20000160)  returns 0x00 (0000ms, 0592ms total)
T4728 001:117 JLINK_WriteReg(R10, 0x00000000)  returns 0x00 (0000ms, 0592ms total)
T4728 001:117 JLINK_WriteReg(R11, 0x00000000)  returns 0x00 (0000ms, 0592ms total)
T4728 001:117 JLINK_WriteReg(R12, 0x00000000)  returns 0x00 (0000ms, 0592ms total)
T4728 001:117 JLINK_WriteReg(R13 (SP), 0x20001000)  returns 0x00 (0000ms, 0592ms total)
T4728 001:117 JLINK_WriteReg(R14, 0x20000001)  returns 0x00 (0000ms, 0592ms total)
T4728 001:117 JLINK_WriteReg(R15 (PC), 0x20000020)  returns 0x00 (0000ms, 0592ms total)
T4728 001:117 JLINK_WriteReg(XPSR, 0x01000000)  returns 0x00 (0000ms, 0592ms total)
T4728 001:117 JLINK_WriteReg(MSP, 0x20001000)  returns 0x00 (0000ms, 0592ms total)
T4728 001:117 JLINK_WriteReg(PSP, 0x20001000)  returns 0x00 (0000ms, 0592ms total)
T4728 001:117 JLINK_WriteReg(CFBP, 0x00000000)  returns 0x00 (0000ms, 0592ms total)
T4728 001:117 JLINK_SetBPEx(Addr = 0x20000000, Type = 0xFFFFFFF2)  returns 0x00000006 (0000ms, 0592ms total)
T4728 001:117 JLINK_Go() (0001ms, 0593ms total)
T4728 001:118 JLINK_IsHalted() -- CPU_ReadMem(2 bytes @ 0x20000000)  returns TRUE (0002ms, 0595ms total)
T4728 001:120 JLINK_ReadReg(R15 (PC))  returns 0x20000000 (0000ms, 0593ms total)
T4728 001:120 JLINK_ClrBPEx(BPHandle = 0x00000006)  returns 0x00 (0000ms, 0593ms total)
T4728 001:120 JLINK_ReadReg(R0)  returns 0x00000001 (0000ms, 0593ms total)
T4728 001:120 JLINK_WriteReg(R0, 0x08001000)  returns 0x00 (0000ms, 0593ms total)
T4728 001:120 JLINK_WriteReg(R1, 0x00000800)  returns 0x00 (0000ms, 0593ms total)
T4728 001:120 JLINK_WriteReg(R2, 0x000000FF)  returns 0x00 (0000ms, 0593ms total)
T4728 001:120 JLINK_WriteReg(R3, 0x00000000)  returns 0x00 (0000ms, 0593ms total)
T4728 001:120 JLINK_WriteReg(R4, 0x00000000)  returns 0x00 (0000ms, 0593ms total)
T4728 001:120 JLINK_WriteReg(R5, 0x00000000)  returns 0x00 (0000ms, 0593ms total)
T4728 001:120 JLINK_WriteReg(R6, 0x00000000)  returns 0x00 (0000ms, 0593ms total)
T4728 001:120 JLINK_WriteReg(R7, 0x00000000)  returns 0x00 (0000ms, 0593ms total)
T4728 001:120 JLINK_WriteReg(R8, 0x00000000)  returns 0x00 (0000ms, 0593ms total)
T4728 001:120 JLINK_WriteReg(R9, 0x20000160)  returns 0x00 (0000ms, 0593ms total)
T4728 001:120 JLINK_WriteReg(R10, 0x00000000)  returns 0x00 (0000ms, 0593ms total)
T4728 001:120 JLINK_WriteReg(R11, 0x00000000)  returns 0x00 (0000ms, 0593ms total)
T4728 001:120 JLINK_WriteReg(R12, 0x00000000)  returns 0x00 (0000ms, 0593ms total)
T4728 001:120 JLINK_WriteReg(R13 (SP), 0x20001000)  returns 0x00 (0000ms, 0593ms total)
T4728 001:120 JLINK_WriteReg(R14, 0x20000001)  returns 0x00 (0000ms, 0593ms total)
T4728 001:120 JLINK_WriteReg(R15 (PC), 0x200000B6)  returns 0x00 (0000ms, 0593ms total)
T4728 001:120 JLINK_WriteReg(XPSR, 0x01000000)  returns 0x00 (0000ms, 0593ms total)
T4728 001:120 JLINK_WriteReg(MSP, 0x20001000)  returns 0x00 (0000ms, 0593ms total)
T4728 001:120 JLINK_WriteReg(PSP, 0x20001000)  returns 0x00 (0000ms, 0593ms total)
T4728 001:120 JLINK_WriteReg(CFBP, 0x00000000)  returns 0x00 (0000ms, 0593ms total)
T4728 001:120 JLINK_SetBPEx(Addr = 0x20000000, Type = 0xFFFFFFF2)  returns 0x00000007 (0000ms, 0593ms total)
T4728 001:120 JLINK_Go() (0001ms, 0594ms total)
T4728 001:121 JLINK_IsHalted()  returns FALSE (0000ms, 0594ms total)
T4728 001:126 JLINK_IsHalted()  returns FALSE (0000ms, 0594ms total)
T4728 001:128 JLINK_IsHalted()  returns FALSE (0000ms, 0594ms total)
T4728 001:131 JLINK_IsHalted()  returns FALSE (0000ms, 0594ms total)
T4728 001:133 JLINK_IsHalted()  returns FALSE (0000ms, 0594ms total)
T4728 001:136 JLINK_IsHalted()  returns FALSE (0000ms, 0594ms total)
T4728 001:139 JLINK_IsHalted()  returns FALSE (0000ms, 0594ms total)
T4728 001:142 JLINK_IsHalted()  returns FALSE (0000ms, 0594ms total)
T4728 001:144 JLINK_IsHalted() -- CPU_ReadMem(2 bytes @ 0x20000000)  returns TRUE (0001ms, 0595ms total)
T4728 001:145 JLINK_ReadReg(R15 (PC))  returns 0x20000000 (0000ms, 0594ms total)
T4728 001:145 JLINK_ClrBPEx(BPHandle = 0x00000007)  returns 0x00 (0000ms, 0594ms total)
T4728 001:145 JLINK_ReadReg(R0)  returns 0x00000000 (0000ms, 0594ms total)
T4728 001:146 JLINK_WriteReg(R0, 0x00000001)  returns 0x00 (0000ms, 0594ms total)
T4728 001:146 JLINK_WriteReg(R1, 0x00000800)  returns 0x00 (0000ms, 0594ms total)
T4728 001:146 JLINK_WriteReg(R2, 0x000000FF)  returns 0x00 (0000ms, 0594ms total)
T4728 001:146 JLINK_WriteReg(R3, 0x00000000)  returns 0x00 (0000ms, 0594ms total)
T4728 001:146 JLINK_WriteReg(R4, 0x00000000)  returns 0x00 (0000ms, 0594ms total)
T4728 001:146 JLINK_WriteReg(R5, 0x00000000)  returns 0x00 (0000ms, 0594ms total)
T4728 001:146 JLINK_WriteReg(R6, 0x00000000)  returns 0x00 (0000ms, 0594ms total)
T4728 001:146 JLINK_WriteReg(R7, 0x00000000)  returns 0x00 (0000ms, 0594ms total)
T4728 001:146 JLINK_WriteReg(R8, 0x00000000)  returns 0x00 (0000ms, 0594ms total)
T4728 001:146 JLINK_WriteReg(R9, 0x20000160)  returns 0x00 (0000ms, 0594ms total)
T4728 001:146 JLINK_WriteReg(R10, 0x00000000)  returns 0x00 (0000ms, 0594ms total)
T4728 001:146 JLINK_WriteReg(R11, 0x00000000)  returns 0x00 (0000ms, 0594ms total)
T4728 001:146 JLINK_WriteReg(R12, 0x00000000)  returns 0x00 (0000ms, 0594ms total)
T4728 001:146 JLINK_WriteReg(R13 (SP), 0x20001000)  returns 0x00 (0000ms, 0594ms total)
T4728 001:146 JLINK_WriteReg(R14, 0x20000001)  returns 0x00 (0000ms, 0594ms total)
T4728 001:146 JLINK_WriteReg(R15 (PC), 0x2000006A)  returns 0x00 (0001ms, 0595ms total)
T4728 001:147 JLINK_WriteReg(XPSR, 0x01000000)  returns 0x00 (0000ms, 0595ms total)
T4728 001:147 JLINK_WriteReg(MSP, 0x20001000)  returns 0x00 (0000ms, 0595ms total)
T4728 001:147 JLINK_WriteReg(PSP, 0x20001000)  returns 0x00 (0000ms, 0595ms total)
T4728 001:147 JLINK_WriteReg(CFBP, 0x00000000)  returns 0x00 (0000ms, 0595ms total)
T4728 001:147 JLINK_SetBPEx(Addr = 0x20000000, Type = 0xFFFFFFF2)  returns 0x00000008 (0000ms, 0595ms total)
T4728 001:147 JLINK_Go() (0000ms, 0595ms total)
T4728 001:147 JLINK_IsHalted() -- CPU_ReadMem(2 bytes @ 0x20000000)  returns TRUE (0002ms, 0597ms total)
T4728 001:149 JLINK_ReadReg(R15 (PC))  returns 0x20000000 (0000ms, 0595ms total)
T4728 001:149 JLINK_ClrBPEx(BPHandle = 0x00000008)  returns 0x00 (0000ms, 0595ms total)
T4728 001:149 JLINK_ReadReg(R0)  returns 0x00000000 (0000ms, 0595ms total)
T4728 001:206 JLINK_WriteMem(0x20000000, 0x0164 Bytes, ...) - Data: 00 BE 0A E0 0D 78 2D 06 68 40 08 24 40 00 00 D3 ... -- CPU_WriteMem(356 bytes @ 0x20000000)  returns 0x164 (0001ms, 0596ms total)
T4728 001:207 JLINK_WriteReg(R0, 0x08000000)  returns 0x00 (0000ms, 0596ms total)
T4728 001:207 JLINK_WriteReg(R1, 0x044AA200)  returns 0x00 (0000ms, 0596ms total)
T4728 001:207 JLINK_WriteReg(R2, 0x00000002)  returns 0x00 (0000ms, 0596ms total)
T4728 001:207 JLINK_WriteReg(R3, 0x00000000)  returns 0x00 (0000ms, 0596ms total)
T4728 001:208 JLINK_WriteReg(R4, 0x00000000)  returns 0x00 (0000ms, 0596ms total)
T4728 001:208 JLINK_WriteReg(R5, 0x00000000)  returns 0x00 (0000ms, 0596ms total)
T4728 001:208 JLINK_WriteReg(R6, 0x00000000)  returns 0x00 (0000ms, 0596ms total)
T4728 001:208 JLINK_WriteReg(R7, 0x00000000)  returns 0x00 (0000ms, 0596ms total)
T4728 001:208 JLINK_WriteReg(R8, 0x00000000)  returns 0x00 (0000ms, 0596ms total)
T4728 001:208 JLINK_WriteReg(R9, 0x20000160)  returns 0x00 (0000ms, 0596ms total)
T4728 001:208 JLINK_WriteReg(R10, 0x00000000)  returns 0x00 (0000ms, 0596ms total)
T4728 001:208 JLINK_WriteReg(R11, 0x00000000)  returns 0x00 (0000ms, 0596ms total)
T4728 001:208 JLINK_WriteReg(R12, 0x00000000)  returns 0x00 (0000ms, 0596ms total)
T4728 001:208 JLINK_WriteReg(R13 (SP), 0x20001000)  returns 0x00 (0000ms, 0596ms total)
T4728 001:208 JLINK_WriteReg(R14, 0x20000001)  returns 0x00 (0000ms, 0596ms total)
T4728 001:208 JLINK_WriteReg(R15 (PC), 0x20000038)  returns 0x00 (0000ms, 0596ms total)
T4728 001:208 JLINK_WriteReg(XPSR, 0x01000000)  returns 0x00 (0000ms, 0596ms total)
T4728 001:208 JLINK_WriteReg(MSP, 0x20001000)  returns 0x00 (0000ms, 0596ms total)
T4728 001:208 JLINK_WriteReg(PSP, 0x20001000)  returns 0x00 (0000ms, 0596ms total)
T4728 001:208 JLINK_WriteReg(CFBP, 0x00000000)  returns 0x00 (0000ms, 0596ms total)
T4728 001:208 JLINK_SetBPEx(Addr = 0x20000000, Type = 0xFFFFFFF2) -- CPU_ReadMem(2 bytes @ 0x20000000)  returns 0x00000009 (0000ms, 0596ms total)
T4728 001:208 JLINK_Go() -- CPU_WriteMem(2 bytes @ 0x20000000) (0001ms, 0597ms total)
T4728 001:209 JLINK_IsHalted() -- CPU_ReadMem(2 bytes @ 0x20000000)  returns TRUE (0002ms, 0599ms total)
T4728 001:211 JLINK_ReadReg(R15 (PC))  returns 0x20000000 (0000ms, 0597ms total)
T4728 001:211 JLINK_ClrBPEx(BPHandle = 0x00000009)  returns 0x00 (0000ms, 0597ms total)
T4728 001:211 JLINK_ReadReg(R0)  returns 0x00000000 (0000ms, 0597ms total)
T4728 001:211 JLINK_WriteMem(0x20000164, 0x0400 Bytes, ...) - Data: 60 04 00 20 45 01 00 08 B3 0E 00 08 E7 0D 00 08 ... -- CPU_WriteMem(1024 bytes @ 0x20000164)  returns 0x400 (0003ms, 0600ms total)
T4728 001:214 JLINK_WriteReg(R0, 0x08000000)  returns 0x00 (0000ms, 0600ms total)
T4728 001:214 JLINK_WriteReg(R1, 0x00000400)  returns 0x00 (0000ms, 0600ms total)
T4728 001:214 JLINK_WriteReg(R2, 0x20000164)  returns 0x00 (0000ms, 0600ms total)
T4728 001:214 JLINK_WriteReg(R3, 0x00000000)  returns 0x00 (0000ms, 0600ms total)
T4728 001:214 JLINK_WriteReg(R4, 0x00000000)  returns 0x00 (0000ms, 0600ms total)
T4728 001:214 JLINK_WriteReg(R5, 0x00000000)  returns 0x00 (0000ms, 0600ms total)
T4728 001:214 JLINK_WriteReg(R6, 0x00000000)  returns 0x00 (0000ms, 0600ms total)
T4728 001:214 JLINK_WriteReg(R7, 0x00000000)  returns 0x00 (0000ms, 0600ms total)
T4728 001:214 JLINK_WriteReg(R8, 0x00000000)  returns 0x00 (0000ms, 0600ms total)
T4728 001:214 JLINK_WriteReg(R9, 0x20000160)  returns 0x00 (0000ms, 0600ms total)
T4728 001:214 JLINK_WriteReg(R10, 0x00000000)  returns 0x00 (0000ms, 0600ms total)
T4728 001:214 JLINK_WriteReg(R11, 0x00000000)  returns 0x00 (0000ms, 0600ms total)
T4728 001:214 JLINK_WriteReg(R12, 0x00000000)  returns 0x00 (0000ms, 0600ms total)
T4728 001:214 JLINK_WriteReg(R13 (SP), 0x20001000)  returns 0x00 (0000ms, 0600ms total)
T4728 001:214 JLINK_WriteReg(R14, 0x20000001)  returns 0x00 (0000ms, 0600ms total)
T4728 001:214 JLINK_WriteReg(R15 (PC), 0x200000F4)  returns 0x00 (0000ms, 0600ms total)
T4728 001:214 JLINK_WriteReg(XPSR, 0x01000000)  returns 0x00 (0000ms, 0600ms total)
T4728 001:214 JLINK_WriteReg(MSP, 0x20001000)  returns 0x00 (0000ms, 0600ms total)
T4728 001:214 JLINK_WriteReg(PSP, 0x20001000)  returns 0x00 (0000ms, 0600ms total)
T4728 001:214 JLINK_WriteReg(CFBP, 0x00000000)  returns 0x00 (0000ms, 0600ms total)
T4728 001:214 JLINK_SetBPEx(Addr = 0x20000000, Type = 0xFFFFFFF2)  returns 0x0000000A (0000ms, 0600ms total)
T4728 001:214 JLINK_Go() (0001ms, 0601ms total)
T4728 001:215 JLINK_IsHalted()  returns FALSE (0000ms, 0601ms total)
T4728 001:221 JLINK_IsHalted()  returns FALSE (0000ms, 0601ms total)
T4728 001:224 JLINK_IsHalted()  returns FALSE (0000ms, 0601ms total)
T4728 001:228 JLINK_IsHalted()  returns FALSE (0000ms, 0601ms total)
T4728 001:230 JLINK_IsHalted()  returns FALSE (0000ms, 0601ms total)
T4728 001:233 JLINK_IsHalted()  returns FALSE (0000ms, 0601ms total)
T4728 001:236 JLINK_IsHalted()  returns FALSE (0000ms, 0601ms total)
T4728 001:238 JLINK_IsHalted()  returns FALSE (0000ms, 0601ms total)
T4728 001:241 JLINK_IsHalted()  returns FALSE (0000ms, 0601ms total)
T4728 001:243 JLINK_IsHalted()  returns FALSE (0000ms, 0601ms total)
T4728 001:245 JLINK_IsHalted()  returns FALSE (0000ms, 0601ms total)
T4728 001:248 JLINK_IsHalted() -- CPU_ReadMem(2 bytes @ 0x20000000)  returns TRUE (0001ms, 0602ms total)
T4728 001:249 JLINK_ReadReg(R15 (PC))  returns 0x20000000 (0000ms, 0601ms total)
T4728 001:249 JLINK_ClrBPEx(BPHandle = 0x0000000A)  returns 0x00 (0000ms, 0601ms total)
T4728 001:249 JLINK_ReadReg(R0)  returns 0x00000000 (0000ms, 0601ms total)
T4728 001:250 JLINK_WriteMem(0x20000164, 0x0400 Bytes, ...) - Data: 00 F0 24 F8 00 20 10 BD 00 20 02 40 70 B5 0D 4D ... -- CPU_WriteMem(1024 bytes @ 0x20000164)  returns 0x400 (0003ms, 0604ms total)
T4728 001:253 JLINK_WriteReg(R0, 0x08000400)  returns 0x00 (0000ms, 0604ms total)
T4728 001:253 JLINK_WriteReg(R1, 0x00000400)  returns 0x00 (0000ms, 0604ms total)
T4728 001:253 JLINK_WriteReg(R2, 0x20000164)  returns 0x00 (0000ms, 0604ms total)
T4728 001:253 JLINK_WriteReg(R3, 0x00000000)  returns 0x00 (0000ms, 0604ms total)
T4728 001:253 JLINK_WriteReg(R4, 0x00000000)  returns 0x00 (0000ms, 0604ms total)
T4728 001:253 JLINK_WriteReg(R5, 0x00000000)  returns 0x00 (0000ms, 0604ms total)
T4728 001:253 JLINK_WriteReg(R6, 0x00000000)  returns 0x00 (0000ms, 0604ms total)
T4728 001:253 JLINK_WriteReg(R7, 0x00000000)  returns 0x00 (0000ms, 0604ms total)
T4728 001:253 JLINK_WriteReg(R8, 0x00000000)  returns 0x00 (0000ms, 0604ms total)
T4728 001:253 JLINK_WriteReg(R9, 0x20000160)  returns 0x00 (0000ms, 0604ms total)
T4728 001:253 JLINK_WriteReg(R10, 0x00000000)  returns 0x00 (0000ms, 0604ms total)
T4728 001:253 JLINK_WriteReg(R11, 0x00000000)  returns 0x00 (0000ms, 0604ms total)
T4728 001:253 JLINK_WriteReg(R12, 0x00000000)  returns 0x00 (0000ms, 0604ms total)
T4728 001:253 JLINK_WriteReg(R13 (SP), 0x20001000)  returns 0x00 (0000ms, 0604ms total)
T4728 001:253 JLINK_WriteReg(R14, 0x20000001)  returns 0x00 (0000ms, 0604ms total)
T4728 001:253 JLINK_WriteReg(R15 (PC), 0x200000F4)  returns 0x00 (0000ms, 0604ms total)
T4728 001:253 JLINK_WriteReg(XPSR, 0x01000000)  returns 0x00 (0000ms, 0604ms total)
T4728 001:253 JLINK_WriteReg(MSP, 0x20001000)  returns 0x00 (0000ms, 0604ms total)
T4728 001:253 JLINK_WriteReg(PSP, 0x20001000)  returns 0x00 (0000ms, 0604ms total)
T4728 001:253 JLINK_WriteReg(CFBP, 0x00000000)  returns 0x00 (0000ms, 0604ms total)
T4728 001:253 JLINK_SetBPEx(Addr = 0x20000000, Type = 0xFFFFFFF2)  returns 0x0000000B (0000ms, 0604ms total)
T4728 001:253 JLINK_Go() (0001ms, 0605ms total)
T4728 001:254 JLINK_IsHalted()  returns FALSE (0000ms, 0605ms total)
T4728 001:258 JLINK_IsHalted()  returns FALSE (0000ms, 0605ms total)
T4728 001:261 JLINK_IsHalted()  returns FALSE (0000ms, 0605ms total)
T4728 001:263 JLINK_IsHalted()  returns FALSE (0000ms, 0605ms total)
T4728 001:266 JLINK_IsHalted()  returns FALSE (0000ms, 0605ms total)
T4728 001:269 JLINK_IsHalted()  returns FALSE (0000ms, 0605ms total)
T4728 001:271 JLINK_IsHalted()  returns FALSE (0000ms, 0605ms total)
T4728 001:274 JLINK_IsHalted()  returns FALSE (0000ms, 0605ms total)
T4728 001:277 JLINK_IsHalted()  returns FALSE (0000ms, 0605ms total)
T4728 001:279 JLINK_IsHalted()  returns FALSE (0000ms, 0605ms total)
T4728 001:282 JLINK_IsHalted()  returns FALSE (0000ms, 0605ms total)
T4728 001:285 JLINK_IsHalted()  returns FALSE (0000ms, 0605ms total)
T4728 001:287 JLINK_IsHalted() -- CPU_ReadMem(2 bytes @ 0x20000000)  returns TRUE (0001ms, 0606ms total)
T4728 001:288 JLINK_ReadReg(R15 (PC))  returns 0x20000000 (0000ms, 0605ms total)
T4728 001:288 JLINK_ClrBPEx(BPHandle = 0x0000000B)  returns 0x00 (0000ms, 0605ms total)
T4728 001:288 JLINK_ReadReg(R0)  returns 0x00000000 (0000ms, 0605ms total)
T4728 001:289 JLINK_WriteMem(0x20000164, 0x0400 Bytes, ...) - Data: 00 98 41 1E 00 91 FA D2 0E E0 80 E0 C0 F8 00 80 ... -- CPU_WriteMem(1024 bytes @ 0x20000164)  returns 0x400 (0003ms, 0608ms total)
T4728 001:292 JLINK_WriteReg(R0, 0x08000800)  returns 0x00 (0000ms, 0608ms total)
T4728 001:292 JLINK_WriteReg(R1, 0x00000400)  returns 0x00 (0000ms, 0608ms total)
T4728 001:292 JLINK_WriteReg(R2, 0x20000164)  returns 0x00 (0000ms, 0608ms total)
T4728 001:292 JLINK_WriteReg(R3, 0x00000000)  returns 0x00 (0000ms, 0608ms total)
T4728 001:292 JLINK_WriteReg(R4, 0x00000000)  returns 0x00 (0000ms, 0608ms total)
T4728 001:292 JLINK_WriteReg(R5, 0x00000000)  returns 0x00 (0000ms, 0608ms total)
T4728 001:292 JLINK_WriteReg(R6, 0x00000000)  returns 0x00 (0000ms, 0608ms total)
T4728 001:292 JLINK_WriteReg(R7, 0x00000000)  returns 0x00 (0000ms, 0608ms total)
T4728 001:292 JLINK_WriteReg(R8, 0x00000000)  returns 0x00 (0000ms, 0608ms total)
T4728 001:292 JLINK_WriteReg(R9, 0x20000160)  returns 0x00 (0000ms, 0608ms total)
T4728 001:292 JLINK_WriteReg(R10, 0x00000000)  returns 0x00 (0000ms, 0608ms total)
T4728 001:292 JLINK_WriteReg(R11, 0x00000000)  returns 0x00 (0000ms, 0608ms total)
T4728 001:292 JLINK_WriteReg(R12, 0x00000000)  returns 0x00 (0000ms, 0608ms total)
T4728 001:292 JLINK_WriteReg(R13 (SP), 0x20001000)  returns 0x00 (0000ms, 0608ms total)
T4728 001:292 JLINK_WriteReg(R14, 0x20000001)  returns 0x00 (0000ms, 0608ms total)
T4728 001:292 JLINK_WriteReg(R15 (PC), 0x200000F4)  returns 0x00 (0000ms, 0608ms total)
T4728 001:292 JLINK_WriteReg(XPSR, 0x01000000)  returns 0x00 (0000ms, 0608ms total)
T4728 001:292 JLINK_WriteReg(MSP, 0x20001000)  returns 0x00 (0000ms, 0608ms total)
T4728 001:292 JLINK_WriteReg(PSP, 0x20001000)  returns 0x00 (0000ms, 0608ms total)
T4728 001:292 JLINK_WriteReg(CFBP, 0x00000000)  returns 0x00 (0000ms, 0608ms total)
T4728 001:292 JLINK_SetBPEx(Addr = 0x20000000, Type = 0xFFFFFFF2)  returns 0x0000000C (0000ms, 0608ms total)
T4728 001:292 JLINK_Go() (0001ms, 0609ms total)
T4728 001:293 JLINK_IsHalted()  returns FALSE (0000ms, 0609ms total)
T4728 001:298 JLINK_IsHalted()  returns FALSE (0000ms, 0609ms total)
T4728 001:301 JLINK_IsHalted()  returns FALSE (0000ms, 0609ms total)
T4728 001:304 JLINK_IsHalted()  returns FALSE (0000ms, 0609ms total)
T4728 001:306 JLINK_IsHalted()  returns FALSE (0000ms, 0609ms total)
T4728 001:308 JLINK_IsHalted()  returns FALSE (0000ms, 0609ms total)
T4728 001:310 JLINK_IsHalted()  returns FALSE (0000ms, 0609ms total)
T4728 001:312 JLINK_IsHalted()  returns FALSE (0000ms, 0609ms total)
T4728 001:314 JLINK_IsHalted()  returns FALSE (0000ms, 0609ms total)
T4728 001:317 JLINK_IsHalted()  returns FALSE (0000ms, 0609ms total)
T4728 001:321 JLINK_IsHalted()  returns FALSE (0000ms, 0609ms total)
T4728 001:323 JLINK_IsHalted() -- CPU_ReadMem(2 bytes @ 0x20000000)  returns TRUE (0001ms, 0610ms total)
T4728 001:324 JLINK_ReadReg(R15 (PC))  returns 0x20000000 (0000ms, 0609ms total)
T4728 001:324 JLINK_ClrBPEx(BPHandle = 0x0000000C)  returns 0x00 (0000ms, 0609ms total)
T4728 001:324 JLINK_ReadReg(R0)  returns 0x00000000 (0000ms, 0609ms total)
T4728 001:325 JLINK_WriteMem(0x20000164, 0x0400 Bytes, ...) - Data: 00 F0 E2 F9 50 21 20 68 07 E0 16 E0 CA 68 49 68 ... -- CPU_WriteMem(1024 bytes @ 0x20000164)  returns 0x400 (0003ms, 0612ms total)
T4728 001:328 JLINK_WriteReg(R0, 0x08000C00)  returns 0x00 (0000ms, 0612ms total)
T4728 001:328 JLINK_WriteReg(R1, 0x00000400)  returns 0x00 (0000ms, 0612ms total)
T4728 001:328 JLINK_WriteReg(R2, 0x20000164)  returns 0x00 (0000ms, 0612ms total)
T4728 001:328 JLINK_WriteReg(R3, 0x00000000)  returns 0x00 (0000ms, 0612ms total)
T4728 001:328 JLINK_WriteReg(R4, 0x00000000)  returns 0x00 (0000ms, 0612ms total)
T4728 001:328 JLINK_WriteReg(R5, 0x00000000)  returns 0x00 (0000ms, 0612ms total)
T4728 001:328 JLINK_WriteReg(R6, 0x00000000)  returns 0x00 (0000ms, 0612ms total)
T4728 001:328 JLINK_WriteReg(R7, 0x00000000)  returns 0x00 (0000ms, 0612ms total)
T4728 001:328 JLINK_WriteReg(R8, 0x00000000)  returns 0x00 (0000ms, 0612ms total)
T4728 001:328 JLINK_WriteReg(R9, 0x20000160)  returns 0x00 (0000ms, 0612ms total)
T4728 001:328 JLINK_WriteReg(R10, 0x00000000)  returns 0x00 (0000ms, 0612ms total)
T4728 001:328 JLINK_WriteReg(R11, 0x00000000)  returns 0x00 (0000ms, 0612ms total)
T4728 001:328 JLINK_WriteReg(R12, 0x00000000)  returns 0x00 (0000ms, 0612ms total)
T4728 001:328 JLINK_WriteReg(R13 (SP), 0x20001000)  returns 0x00 (0000ms, 0612ms total)
T4728 001:328 JLINK_WriteReg(R14, 0x20000001)  returns 0x00 (0000ms, 0612ms total)
T4728 001:328 JLINK_WriteReg(R15 (PC), 0x200000F4)  returns 0x00 (0000ms, 0612ms total)
T4728 001:328 JLINK_WriteReg(XPSR, 0x01000000)  returns 0x00 (0000ms, 0612ms total)
T4728 001:328 JLINK_WriteReg(MSP, 0x20001000)  returns 0x00 (0000ms, 0612ms total)
T4728 001:328 JLINK_WriteReg(PSP, 0x20001000)  returns 0x00 (0000ms, 0612ms total)
T4728 001:328 JLINK_WriteReg(CFBP, 0x00000000)  returns 0x00 (0000ms, 0612ms total)
T4728 001:328 JLINK_SetBPEx(Addr = 0x20000000, Type = 0xFFFFFFF2)  returns 0x0000000D (0000ms, 0612ms total)
T4728 001:328 JLINK_Go() (0001ms, 0613ms total)
T4728 001:329 JLINK_IsHalted()  returns FALSE (0000ms, 0613ms total)
T4728 001:331 JLINK_IsHalted()  returns FALSE (0000ms, 0613ms total)
T4728 001:336 JLINK_IsHalted()  returns FALSE (0000ms, 0613ms total)
T4728 001:338 JLINK_IsHalted()  returns FALSE (0000ms, 0613ms total)
T4728 001:340 JLINK_IsHalted()  returns FALSE (0000ms, 0613ms total)
T4728 001:342 JLINK_IsHalted()  returns FALSE (0000ms, 0613ms total)
T4728 001:345 JLINK_IsHalted()  returns FALSE (0000ms, 0613ms total)
T4728 001:348 JLINK_IsHalted()  returns FALSE (0000ms, 0613ms total)
T4728 001:350 JLINK_IsHalted()  returns FALSE (0000ms, 0613ms total)
T4728 001:352 JLINK_IsHalted()  returns FALSE (0000ms, 0613ms total)
T4728 001:356 JLINK_IsHalted()  returns FALSE (0000ms, 0613ms total)
T4728 001:358 JLINK_IsHalted()  returns FALSE (0000ms, 0613ms total)
T4728 001:360 JLINK_IsHalted() -- CPU_ReadMem(2 bytes @ 0x20000000)  returns TRUE (0001ms, 0614ms total)
T4728 001:361 JLINK_ReadReg(R15 (PC))  returns 0x20000000 (0000ms, 0613ms total)
T4728 001:361 JLINK_ClrBPEx(BPHandle = 0x0000000D)  returns 0x00 (0000ms, 0613ms total)
T4728 001:361 JLINK_ReadReg(R0)  returns 0x00000000 (0000ms, 0613ms total)
T4728 001:362 JLINK_WriteMem(0x20000164, 0x0400 Bytes, ...) - Data: 24 F0 A0 03 43 EA 01 11 82 61 01 62 10 BD FE E7 ... -- CPU_WriteMem(1024 bytes @ 0x20000164)  returns 0x400 (0003ms, 0616ms total)
T4728 001:365 JLINK_WriteReg(R0, 0x08001000)  returns 0x00 (0000ms, 0616ms total)
T4728 001:365 JLINK_WriteReg(R1, 0x000000B0)  returns 0x00 (0000ms, 0616ms total)
T4728 001:365 JLINK_WriteReg(R2, 0x20000164)  returns 0x00 (0000ms, 0616ms total)
T4728 001:365 JLINK_WriteReg(R3, 0x00000000)  returns 0x00 (0000ms, 0616ms total)
T4728 001:365 JLINK_WriteReg(R4, 0x00000000)  returns 0x00 (0000ms, 0616ms total)
T4728 001:365 JLINK_WriteReg(R5, 0x00000000)  returns 0x00 (0000ms, 0616ms total)
T4728 001:365 JLINK_WriteReg(R6, 0x00000000)  returns 0x00 (0000ms, 0616ms total)
T4728 001:365 JLINK_WriteReg(R7, 0x00000000)  returns 0x00 (0000ms, 0616ms total)
T4728 001:365 JLINK_WriteReg(R8, 0x00000000)  returns 0x00 (0000ms, 0616ms total)
T4728 001:365 JLINK_WriteReg(R9, 0x20000160)  returns 0x00 (0000ms, 0616ms total)
T4728 001:365 JLINK_WriteReg(R10, 0x00000000)  returns 0x00 (0000ms, 0616ms total)
T4728 001:365 JLINK_WriteReg(R11, 0x00000000)  returns 0x00 (0000ms, 0616ms total)
T4728 001:365 JLINK_WriteReg(R12, 0x00000000)  returns 0x00 (0000ms, 0616ms total)
T4728 001:365 JLINK_WriteReg(R13 (SP), 0x20001000)  returns 0x00 (0000ms, 0616ms total)
T4728 001:365 JLINK_WriteReg(R14, 0x20000001)  returns 0x00 (0000ms, 0616ms total)
T4728 001:365 JLINK_WriteReg(R15 (PC), 0x200000F4)  returns 0x00 (0000ms, 0616ms total)
T4728 001:365 JLINK_WriteReg(XPSR, 0x01000000)  returns 0x00 (0000ms, 0616ms total)
T4728 001:365 JLINK_WriteReg(MSP, 0x20001000)  returns 0x00 (0000ms, 0616ms total)
T4728 001:365 JLINK_WriteReg(PSP, 0x20001000)  returns 0x00 (0000ms, 0616ms total)
T4728 001:365 JLINK_WriteReg(CFBP, 0x00000000)  returns 0x00 (0000ms, 0616ms total)
T4728 001:365 JLINK_SetBPEx(Addr = 0x20000000, Type = 0xFFFFFFF2)  returns 0x0000000E (0000ms, 0616ms total)
T4728 001:365 JLINK_Go() (0001ms, 0617ms total)
T4728 001:366 JLINK_IsHalted()  returns FALSE (0000ms, 0617ms total)
T4728 001:369 JLINK_IsHalted()  returns FALSE (0000ms, 0617ms total)
T4728 001:371 JLINK_IsHalted()  returns FALSE (0000ms, 0617ms total)
T4728 001:374 JLINK_IsHalted() -- CPU_ReadMem(2 bytes @ 0x20000000)  returns TRUE (0001ms, 0618ms total)
T4728 001:375 JLINK_ReadReg(R15 (PC))  returns 0x20000000 (0000ms, 0617ms total)
T4728 001:375 JLINK_ClrBPEx(BPHandle = 0x0000000E)  returns 0x00 (0000ms, 0617ms total)
T4728 001:375 JLINK_ReadReg(R0)  returns 0x00000000 (0000ms, 0617ms total)
T4728 001:375 JLINK_WriteReg(R0, 0x00000002)  returns 0x00 (0000ms, 0617ms total)
T4728 001:375 JLINK_WriteReg(R1, 0x000000B0)  returns 0x00 (0000ms, 0617ms total)
T4728 001:375 JLINK_WriteReg(R2, 0x20000164)  returns 0x00 (0000ms, 0617ms total)
T4728 001:375 JLINK_WriteReg(R3, 0x00000000)  returns 0x00 (0000ms, 0617ms total)
T4728 001:375 JLINK_WriteReg(R4, 0x00000000)  returns 0x00 (0000ms, 0617ms total)
T4728 001:375 JLINK_WriteReg(R5, 0x00000000)  returns 0x00 (0000ms, 0617ms total)
T4728 001:375 JLINK_WriteReg(R6, 0x00000000)  returns 0x00 (0000ms, 0617ms total)
T4728 001:375 JLINK_WriteReg(R7, 0x00000000)  returns 0x00 (0000ms, 0617ms total)
T4728 001:375 JLINK_WriteReg(R8, 0x00000000)  returns 0x00 (0000ms, 0617ms total)
T4728 001:376 JLINK_WriteReg(R9, 0x20000160)  returns 0x00 (0000ms, 0618ms total)
T4728 001:376 JLINK_WriteReg(R10, 0x00000000)  returns 0x00 (0000ms, 0618ms total)
T4728 001:376 JLINK_WriteReg(R11, 0x00000000)  returns 0x00 (0000ms, 0618ms total)
T4728 001:376 JLINK_WriteReg(R12, 0x00000000)  returns 0x00 (0000ms, 0618ms total)
T4728 001:376 JLINK_WriteReg(R13 (SP), 0x20001000)  returns 0x00 (0000ms, 0618ms total)
T4728 001:376 JLINK_WriteReg(R14, 0x20000001)  returns 0x00 (0000ms, 0618ms total)
T4728 001:376 JLINK_WriteReg(R15 (PC), 0x2000006A)  returns 0x00 (0000ms, 0618ms total)
T4728 001:376 JLINK_WriteReg(XPSR, 0x01000000)  returns 0x00 (0000ms, 0618ms total)
T4728 001:376 JLINK_WriteReg(MSP, 0x20001000)  returns 0x00 (0000ms, 0618ms total)
T4728 001:376 JLINK_WriteReg(PSP, 0x20001000)  returns 0x00 (0000ms, 0618ms total)
T4728 001:376 JLINK_WriteReg(CFBP, 0x00000000)  returns 0x00 (0000ms, 0618ms total)
T4728 001:376 JLINK_SetBPEx(Addr = 0x20000000, Type = 0xFFFFFFF2)  returns 0x0000000F (0000ms, 0618ms total)
T4728 001:376 JLINK_Go() (0001ms, 0619ms total)
T4728 001:377 JLINK_IsHalted() -- CPU_ReadMem(2 bytes @ 0x20000000)  returns TRUE (0001ms, 0620ms total)
T4728 001:378 JLINK_ReadReg(R15 (PC))  returns 0x20000000 (0000ms, 0619ms total)
T4728 001:378 JLINK_ClrBPEx(BPHandle = 0x0000000F)  returns 0x00 (0000ms, 0619ms total)
T4728 001:378 JLINK_ReadReg(R0)  returns 0x00000000 (0000ms, 0619ms total)
T4728 001:437 JLINK_WriteMem(0x20000000, 0x0164 Bytes, ...) - Data: 00 BE 0A E0 0D 78 2D 06 68 40 08 24 40 00 00 D3 ... -- CPU_WriteMem(356 bytes @ 0x20000000)  returns 0x164 (0002ms, 0621ms total)
T4728 001:439 JLINK_WriteReg(R0, 0x08000000)  returns 0x00 (0000ms, 0621ms total)
T4728 001:439 JLINK_WriteReg(R1, 0x044AA200)  returns 0x00 (0000ms, 0621ms total)
T4728 001:439 JLINK_WriteReg(R2, 0x00000003)  returns 0x00 (0000ms, 0621ms total)
T4728 001:439 JLINK_WriteReg(R3, 0x00000000)  returns 0x00 (0000ms, 0621ms total)
T4728 001:439 JLINK_WriteReg(R4, 0x00000000)  returns 0x00 (0000ms, 0621ms total)
T4728 001:439 JLINK_WriteReg(R5, 0x00000000)  returns 0x00 (0000ms, 0621ms total)
T4728 001:439 JLINK_WriteReg(R6, 0x00000000)  returns 0x00 (0000ms, 0621ms total)
T4728 001:439 JLINK_WriteReg(R7, 0x00000000)  returns 0x00 (0000ms, 0621ms total)
T4728 001:439 JLINK_WriteReg(R8, 0x00000000)  returns 0x00 (0000ms, 0621ms total)
T4728 001:439 JLINK_WriteReg(R9, 0x20000160)  returns 0x00 (0000ms, 0621ms total)
T4728 001:439 JLINK_WriteReg(R10, 0x00000000)  returns 0x00 (0000ms, 0621ms total)
T4728 001:439 JLINK_WriteReg(R11, 0x00000000)  returns 0x00 (0000ms, 0621ms total)
T4728 001:439 JLINK_WriteReg(R12, 0x00000000)  returns 0x00 (0000ms, 0621ms total)
T4728 001:439 JLINK_WriteReg(R13 (SP), 0x20001000)  returns 0x00 (0000ms, 0621ms total)
T4728 001:439 JLINK_WriteReg(R14, 0x20000001)  returns 0x00 (0000ms, 0621ms total)
T4728 001:439 JLINK_WriteReg(R15 (PC), 0x20000038)  returns 0x00 (0000ms, 0621ms total)
T4728 001:439 JLINK_WriteReg(XPSR, 0x01000000)  returns 0x00 (0000ms, 0621ms total)
T4728 001:439 JLINK_WriteReg(MSP, 0x20001000)  returns 0x00 (0000ms, 0621ms total)
T4728 001:439 JLINK_WriteReg(PSP, 0x20001000)  returns 0x00 (0000ms, 0621ms total)
